/*
SQLyog Enterprise v12.09 (64 bit)
MySQL - 5.0.15-nt : Database - fire
*********************************************************************
*/

/*!40101 SET NAMES utf8 */;

/*!40101 SET SQL_MODE=''*/;

/*!40014 SET @OLD_UNIQUE_CHECKS=@@UNIQUE_CHECKS, UNIQUE_CHECKS=0 */;
/*!40014 SET @OLD_FOREIGN_KEY_CHECKS=@@FOREIGN_KEY_CHECKS, FOREIGN_KEY_CHECKS=0 */;
/*!40101 SET @OLD_SQL_MODE=@@SQL_MODE, SQL_MODE='NO_AUTO_VALUE_ON_ZERO' */;
/*!40111 SET @OLD_SQL_NOTES=@@SQL_NOTES, SQL_NOTES=0 */;
CREATE DATABASE /*!32312 IF NOT EXISTS*/`fire` /*!40100 DEFAULT CHARACTER SET utf8 */;

USE `fire`;

/*Table structure for table `t_msg` */

DROP TABLE IF EXISTS `t_msg`;

CREATE TABLE `t_msg` (
  `id` bigint(20) NOT NULL auto_increment,
  `com` varchar(255) default NULL,
  `command` varchar(255) default NULL,
  `msg` varchar(255) default NULL,
  `time` varchar(255) default NULL,
  PRIMARY KEY  (`id`)
) ENGINE=InnoDB DEFAULT CHARSET=utf8;

/*Data for the table `t_msg` */

insert  into `t_msg`(`id`,`com`,`command`,`msg`,`time`) values (1,'01','15 01 01 33 00 00 CE ED','读取温湿度信息','2018-05-25,15:15:14'),(2,'01','15 01 01 33 00 00 CE ED','读取温湿度信息','2018-05-28,16:20:50'),(3,'01','15 01 01 33 00 00 CE ED','读取温湿度信息','2018-05-28,16:20:57'),(4,'01','15 01 01 33 00 00 CE ED','读取温湿度信息','2018-05-28,16:21:08'),(5,'01','15 01 01 33 00 00 CE ED','读取温湿度信息','2018-05-28,16:21:17'),(6,'01','15 01 01 99 F0 00 AA CD','点亮一号灯','2018-05-28,16:22:34'),(7,'01','15 01 01 99 00 F0 EE 89','点亮二号灯','2018-05-28,16:22:40'),(8,'01','15 01 01 55 BA CE CA D7 CE DA 81 8A','设置药名何首乌','2018-05-28,16:22:58'),(9,'01','15 01 01 33 00 00 CE ED','读取温湿度信息','2018-05-28,16:23:12'),(10,'01','15 01 01 33 00 00 CE ED','读取温湿度信息','2018-05-28,16:23:19'),(11,'01','15 01 01 99 F0 F0 AA 89','点亮所有灯','2018-05-28,16:24:04'),(12,'01','15 01 01 44 00 00 7E F7','读取抽屉状态','2018-05-28,16:24:10'),(13,'01','15 01 01 66 00 00 DE FD','读取总重量','2018-05-28,16:24:25'),(14,'01','15 01 01 33 00 00 CE ED','读取温湿度信息','2018-05-28,16:26:32'),(15,'01','15 01 01 88 00 00 BE C8','读取指示灯状态','2018-05-28,16:26:45'),(16,'01','15 01 01 44 00 00 7E F7','读取抽屉状态','2018-05-28,16:26:53'),(17,'01','15 01 01 66 00 00 DE FD','读取总重量','2018-05-28,16:27:11'),(18,'01','15 01 01 33 00 00 CE ED','读取温湿度信息','2018-05-28,16:27:16'),(19,'02','15 01 02 99 F0 00 AA CD','点亮一号灯','2018-05-28,16:27:51'),(20,'02','15 01 02 99 00 F0 EE 89','点亮二号灯','2018-05-28,16:28:02'),(21,'01','15 01 01 33 00 00 CE ED','读取温湿度信息','2018-05-28,17:57:42'),(22,'02','15 01 02 33 00 00 CE ED','读取温湿度信息','2018-05-28,17:57:51'),(23,'02','15 01 02 88 00 00 BE C8','读取指示灯状态','2018-05-28,17:58:05'),(24,'02','15 01 02 33 00 00 94 1E','读取温湿度信息','2018-05-28,18:28:30'),(25,'02','15 01 02 33 00 00 94 1E','读取温湿度信息','2018-05-28,18:31:02'),(26,'02','15 01 02 33 00 00 CE A9','读取温湿度信息','2018-05-28,18:32:20'),(27,'01','15 01 01 77 01 00 8F 68','设置药品重量256','2018-05-30,19:09:18'),(28,'01','15 01 01 33 00 00 CE ED','读取温湿度信息','2018-05-30,20:28:34'),(29,'01','15 01 01 44 00 00 7E F7','读取抽屉状态','2018-05-30,20:28:46'),(30,'01','15 01 01 88 00 00 BE C8','读取指示灯状态','2018-05-30,20:28:59'),(31,'01','15 01 01 99 F0 00 AA CD','点亮一号灯','2018-05-30,20:29:06'),(32,'01','15 01 01 33 00 00 CE ED','读取温湿度信息','2018-05-30,20:30:14'),(33,'01','15 01 01 44 00 00 7E F7','读取抽屉状态','2018-05-30,20:30:23'),(34,'01','15 01 01 66 00 00 DE FD','读取总重量','2018-05-30,20:30:29'),(35,'01','15 01 01 88 00 00 BE C8','读取指示灯状态','2018-05-30,20:30:34'),(36,'01','15 01 01 99 F0 00 AA CD','点亮一号灯','2018-05-30,20:30:40'),(37,'01','15 01 01 99 00 F0 EE 89','点亮二号灯','2018-05-30,20:30:44'),(38,'01','15 01 01 99 F0 F0 AA 89','点亮所有灯','2018-05-30,20:30:47'),(39,'01','15 01 01 55 BA CE CA D7 CE DA 81 8A','设置药名何首乌','2018-05-30,20:30:55'),(40,'01','15 01 01 77 00 64 8F 13','设置药品重量100','2018-05-30,20:31:01'),(41,'02','15 01 02 55 BA CE CA D7 CE DA C1 9F','设置药名何首乌','2018-05-30,20:31:14'),(42,'02','15 01 02 77 00 64 8F 57','设置药品重量100','2018-05-30,20:31:16'),(43,'02','15 01 02 55 C8 CB B2 CE 26 BC','设置药名人参','2018-05-30,20:31:22'),(44,'02','15 01 02 99 F0 00 AA 89','点亮一号灯','2018-05-30,20:31:30'),(45,'02','15 01 02 66 00 00 DE B9','读取总重量','2018-05-30,20:31:35'),(46,'02','15 01 02 77 00 c8 8F 2A','设置药品重量200','2018-05-30,20:34:29'),(47,'02','15 01 02 77 00 32 0F 69','设置药品重量50','2018-05-30,20:34:42'),(48,'02','15 01 02 66 00 00 DE B9','读取总重量','2018-05-30,20:35:21'),(49,'01','15 01 01 22 00 00 9E E8','读取温湿度信息','2018-05-30,20:40:29'),(50,'02','15 01 02 22 00 00 9E AC','读取温湿度信息','2018-05-30,20:40:39'),(51,'01','15 01 01 33 00 00 CE ED','打开抽屉','2018-05-30,20:47:12'),(52,'02','15 01 02 33 00 00 CE A9','打开抽屉','2018-05-30,20:47:29'),(53,'02','15 01 02 33 F0 00 8A A9','关闭抽屉','2018-05-30,20:47:35'),(54,'02','15 01 02 33 00 00 CE A9','打开抽屉','2018-05-30,20:47:49'),(55,'02','15 01 02 33 F0 00 8A A9','关闭抽屉','2018-05-30,20:48:08'),(56,'02','15 01 02 77 00 32 0F 69','设置药品重量50','2018-05-30,20:54:19'),(57,'02','15 01 02 33 F0 00 8A A9','关闭抽屉','2018-05-30,20:58:06'),(58,'02','15 01 02 33 00 00 CE A9','打开抽屉','2018-05-30,20:58:14'),(59,'02','15 01 02 44 00 00 7E B3','读取抽屉状态','2018-05-30,20:58:29'),(60,'02','15 01 02 77 00 32 0F 69','设置药品重量50','2018-05-30,20:58:41'),(61,'01','15 01 01 33 F0 00 8A ED','关闭抽屉','2018-05-31,16:27:39'),(62,'01','15 01 01 33 00 00 CE ED','打开抽屉','2018-05-31,16:27:44'),(63,'01','15 01 01 88 00 00 BE C8','读取指示灯状态','2018-05-31,16:27:54'),(64,'01','15 01 01 99 F0 00 AA CD','点亮一号灯','2018-05-31,16:28:00'),(65,'01','15 01 01 22 00 00 9E E8','读取温湿度信息','2018-05-31,16:28:07'),(66,'01','15 01 01 66 00 00 DE FD','读取总重量','2018-05-31,16:28:26'),(67,'02','15 01 02 66 00 00 DE B9','读取总重量','2018-05-31,16:28:40'),(68,'02','15 01 02 55 C8 CB B2 CE 26 BC','设置药名人参','2018-05-31,16:28:48'),(69,'02','15 01 02 77 00 6a 0E 93','设置药品重量106','2018-05-31,16:28:56'),(70,'02','15 01 02 55 C8 CB B2 CE 26 BC','设置药名人参','2018-05-31,16:32:59'),(71,'02','15 01 02 22 00 00 9E AC','读取温湿度信息','2018-05-31,16:33:13'),(72,'01','15 01 01 33 F0 00 8A ED','关闭抽屉','2018-06-05,13:07:51'),(73,'02','15 01 02 33 F0 00 8A A9','关闭抽屉','2018-06-05,13:08:02'),(74,'01','15 01 01 33 00 00 CE ED','打开抽屉','2018-06-05,13:08:08'),(75,'02','15 01 02 55 C8 CB B2 CE 26 BC','设置药名人参','2018-06-05,13:08:29'),(76,'02','15 01 02 77 00 64 8F 57','设置药品重量100','2018-06-05,13:08:38'),(77,'02','15 01 02 66 00 00 DE B9','读取总重量','2018-06-05,13:08:58'),(78,'02','15 01 02 33 00 00 CE A9','打开抽屉','2018-06-05,13:09:42'),(79,'01','15 01 01 99 F0 00 AA CD','点亮一号灯','2018-06-05,13:09:55'),(80,'01','15 01 01 99 00 F0 EE 89','点亮二号灯','2018-06-05,13:10:00'),(81,'01','15 01 01 55 C8 CB B2 CE 26 8F','设置药名人参','2018-06-05,13:10:05'),(82,'01','15 01 01 33 F0 00 8A ED','关闭抽屉','2018-06-05,13:10:14'),(83,'01','15 01 01 33 00 00 CE ED','打开抽屉','2018-06-05,13:10:18'),(84,'01','15 01 01 99 F0 F0 AA 89','点亮所有灯','2018-06-05,13:11:11'),(85,'01','15 01 01 99 F0 00 AA CD','点亮一号灯','2018-06-05,13:11:14'),(86,'01','15 01 01 33 F0 00 8A ED','关闭抽屉','2018-06-05,14:54:12'),(87,'01','15 01 01 33 00 00 CE ED','打开抽屉','2018-06-05,14:54:16'),(88,'02','15 01 02 33 00 00 CE A9','打开抽屉','2018-06-05,14:54:38'),(89,'02','15 01 02 33 F0 00 8A A9','关闭抽屉','2018-06-05,14:54:41'),(90,'02','15 01 02 22 00 00 9E AC','读取温湿度信息','2018-06-05,14:55:02'),(91,'02','15 01 02 99 F0 00 AA 89','点亮一号灯','2018-06-05,14:55:19'),(92,'02','15 01 02 77 00 64 8F 57','设置药品重量100','2018-06-05,14:55:33'),(93,'02','15 01 02 77 00 64 8F 57','设置药品重量100','2018-06-05,14:56:22'),(94,'02','15 01 02 77 00 c8 8F 2A','设置药品重量200','2018-06-05,14:56:51'),(95,'02','15 01 02 33 00 00 CE A9','打开抽屉','2018-06-05,14:56:56'),(96,'02','15 01 02 33 F0 00 8A A9','关闭抽屉','2018-06-05,14:57:01'),(97,'02','15 01 02 66 00 00 DE B9','读取总重量','2018-06-05,14:58:11'),(98,'01','15 01 01 66 00 00 DE FD','读取总重量','2018-06-05,14:58:49'),(99,'02','15 01 02 44 00 00 7E B3','读取抽屉状态','2018-06-05,14:59:01'),(100,'02','15 01 02 88 00 00 BE 8C','读取指示灯状态','2018-06-05,14:59:10'),(101,'02','15 01 02 99 F0 00 AA 89','点亮一号灯','2018-06-05,14:59:30'),(102,'02','15 01 02 99 00 F0 EE CD','点亮二号灯','2018-06-05,15:00:28'),(103,'02','15 01 02 33 00 00 CE A9','打开抽屉','2018-06-05,15:00:38'),(104,'02','15 01 02 55 BA CE CA D7 CE DA C1 9F','设置药名何首乌','2018-06-05,15:00:58');

/*!40101 SET SQL_MODE=@OLD_SQL_MODE */;
/*!40014 SET FOREIGN_KEY_CHECKS=@OLD_FOREIGN_KEY_CHECKS */;
/*!40014 SET UNIQUE_CHECKS=@OLD_UNIQUE_CHECKS */;
/*!40111 SET SQL_NOTES=@OLD_SQL_NOTES */;
